Title: R1 VCC N002 777
Date: Sat May 17 13:14:11 2025
Plotname: Transient Analysis
Flags: real forward
No. Variables: 7
No. Points:         1045
Offset:    0.0000000000000000e+00
Command: Linear Technology Corporation LTspice
Variables:
	0	time	time
	1	V(n002)	voltage
	2	V(n003)	voltage
	3	V(vcc)	voltage
	4	I(C1)	device_current
	5	I(L1)	device_current
	6	I(V_vcc)	device_current
Values:
0		0.000000000000000e+00
	0.000000000000000e+00
	0.000000000000000e+00
	-5.000000000000000e+00
	0.000000000000000e+00
	0.000000000000000e+00
	0.000000000000000e+00
1		9.999999717180685e-10
	0.000000000000000e+00
	0.000000000000000e+00
	-5.000000000000000e+00
	0.000000000000000e+00
	0.000000000000000e+00
	0.000000000000000e+00
2		1.999999943436137e-09
	0.000000000000000e+00
	0.000000000000000e+00
	-5.000000000000000e+00
	0.000000000000000e+00
	0.000000000000000e+00
	0.000000000000000e+00
3		3.999999886872274e-09
	0.000000000000000e+00
	0.000000000000000e+00
	-5.000000000000000e+00
	0.000000000000000e+00
	0.000000000000000e+00
	0.000000000000000e+00
4		7.999999773744548e-09
	0.000000000000000e+00
	0.000000000000000e+00
	-5.000000000000000e+00
	0.000000000000000e+00
	0.000000000000000e+00
	0.000000000000000e+00
5		1.599999954748910e-08
	0.000000000000000e+00
	0.000000000000000e+00
	-5.000000000000000e+00
	0.000000000000000e+00
	0.000000000000000e+00
	0.000000000000000e+00
6		3.199999909497819e-08
	0.000000000000000e+00
	0.000000000000000e+00
	-5.000000000000000e+00
	0.000000000000000e+00
	0.000000000000000e+00
	0.000000000000000e+00
7		6.399999818995639e-08
	0.000000000000000e+00
	0.000000000000000e+00
	-5.000000000000000e+00
	0.000000000000000e+00
	0.000000000000000e+00
	0.000000000000000e+00
8		1.279999963799128e-07
	0.000000000000000e+00
	0.000000000000000e+00
	-5.000000000000000e+00
	0.000000000000000e+00
	0.000000000000000e+00
	0.000000000000000e+00
9		2.559999927598255e-07
	0.000000000000000e+00
	0.000000000000000e+00
	-5.000000000000000e+00
	0.000000000000000e+00
	0.000000000000000e+00
	0.000000000000000e+00
10		5.119999855196511e-07
	0.000000000000000e+00
	0.000000000000000e+00
	-5.000000000000000e+00
	0.000000000000000e+00
	0.000000000000000e+00
	0.000000000000000e+00
11		1.023999971039302e-06
	0.000000000000000e+00
	0.000000000000000e+00
	-5.000000000000000e+00
	0.000000000000000e+00
	0.000000000000000e+00
	0.000000000000000e+00
12		2.047999942078604e-06
	0.000000000000000e+00
	0.000000000000000e+00
	-5.000000000000000e+00
	0.000000000000000e+00
	0.000000000000000e+00
	0.000000000000000e+00
13		4.095999884157209e-06
	0.000000000000000e+00
	0.000000000000000e+00
	-5.000000000000000e+00
	0.000000000000000e+00
	0.000000000000000e+00
	0.000000000000000e+00
14		8.191999768314417e-06
	0.000000000000000e+00
	0.000000000000000e+00
	-5.000000000000000e+00
	0.000000000000000e+00
	0.000000000000000e+00
	0.000000000000000e+00
15		1.638399953662883e-05
	0.000000000000000e+00
	0.000000000000000e+00
	-5.000000000000000e+00
	0.000000000000000e+00
	0.000000000000000e+00
	0.000000000000000e+00
16		3.276799907325767e-05
	0.000000000000000e+00
	0.000000000000000e+00
	-5.000000000000000e+00
	0.000000000000000e+00
	0.000000000000000e+00
	0.000000000000000e+00
17		6.553599814651534e-05
	0.000000000000000e+00
	0.000000000000000e+00
	-5.000000000000000e+00
	0.000000000000000e+00
	0.000000000000000e+00
	0.000000000000000e+00
18		1.310719962930307e-04
	0.000000000000000e+00
	0.000000000000000e+00
	-5.000000000000000e+00
	0.000000000000000e+00
	0.000000000000000e+00
	0.000000000000000e+00
19		2.621439925860614e-04
	0.000000000000000e+00
	0.000000000000000e+00
	-5.000000000000000e+00
	0.000000000000000e+00
	0.000000000000000e+00
	0.000000000000000e+00
20		5.242879851721227e-04
	0.000000000000000e+00
	0.000000000000000e+00
	-5.000000000000000e+00
	0.000000000000000e+00
	0.000000000000000e+00
	0.000000000000000e+00
21		1.048575970344245e-03
	0.000000000000000e+00
	0.000000000000000e+00
	-5.000000000000000e+00
	0.000000000000000e+00
	0.000000000000000e+00
	0.000000000000000e+00
22		2.025138470344245e-03
	0.000000000000000e+00
	0.000000000000000e+00
	-5.000000000000000e+00
	0.000000000000000e+00
	0.000000000000000e+00
	0.000000000000000e+00
23		3.001700970344245e-03
	0.000000000000000e+00
	0.000000000000000e+00
	-5.000000000000000e+00
	0.000000000000000e+00
	0.000000000000000e+00
	0.000000000000000e+00
24		3.978263470344245e-03
	0.000000000000000e+00
	0.000000000000000e+00
	-5.000000000000000e+00
	0.000000000000000e+00
	0.000000000000000e+00
	0.000000000000000e+00
25		4.954825970344245e-03
	0.000000000000000e+00
	0.000000000000000e+00
	-5.000000000000000e+00
	0.000000000000000e+00
	0.000000000000000e+00
	0.000000000000000e+00
26		5.931388470344245e-03
	0.000000000000000e+00
	0.000000000000000e+00
	-5.000000000000000e+00
	0.000000000000000e+00
	0.000000000000000e+00
	0.000000000000000e+00
27		6.907950970344245e-03
	0.000000000000000e+00
	0.000000000000000e+00
	-5.000000000000000e+00
	0.000000000000000e+00
	0.000000000000000e+00
	0.000000000000000e+00
28		7.884513470344245e-03
	0.000000000000000e+00
	0.000000000000000e+00
	-5.000000000000000e+00
	0.000000000000000e+00
	0.000000000000000e+00
	0.000000000000000e+00
29		8.861075970344245e-03
	0.000000000000000e+00
	0.000000000000000e+00
	-5.000000000000000e+00
	0.000000000000000e+00
	0.000000000000000e+00
	0.000000000000000e+00
30		9.837638470344245e-03
	0.000000000000000e+00
	0.000000000000000e+00
	-5.000000000000000e+00
	0.000000000000000e+00
	0.000000000000000e+00
	0.000000000000000e+00
31		1.081420097034425e-02
	0.000000000000000e+00
	0.000000000000000e+00
	-5.000000000000000e+00
	0.000000000000000e+00
	0.000000000000000e+00
	0.000000000000000e+00
32		1.179076347034425e-02
	0.000000000000000e+00
	0.000000000000000e+00
	-5.000000000000000e+00
	0.000000000000000e+00
	0.000000000000000e+00
	0.000000000000000e+00
33		1.276732597034425e-02
	0.000000000000000e+00
	0.000000000000000e+00
	-5.000000000000000e+00
	0.000000000000000e+00
	0.000000000000000e+00
	0.000000000000000e+00
34		1.374388847034425e-02
	0.000000000000000e+00
	0.000000000000000e+00
	-5.000000000000000e+00
	0.000000000000000e+00
	0.000000000000000e+00
	0.000000000000000e+00
35		1.472045097034425e-02
	0.000000000000000e+00
	0.000000000000000e+00
	-5.000000000000000e+00
	0.000000000000000e+00
	0.000000000000000e+00
	0.000000000000000e+00
36		1.569701347034425e-02
	0.000000000000000e+00
	0.000000000000000e+00
	-5.000000000000000e+00
	0.000000000000000e+00
	0.000000000000000e+00
	0.000000000000000e+00
37		1.667357597034425e-02
	0.000000000000000e+00
	0.000000000000000e+00
	-5.000000000000000e+00
	0.000000000000000e+00
	0.000000000000000e+00
	0.000000000000000e+00
38		1.765013847034425e-02
	0.000000000000000e+00
	0.000000000000000e+00
	-5.000000000000000e+00
	0.000000000000000e+00
	0.000000000000000e+00
	0.000000000000000e+00
39		1.862670097034425e-02
	0.000000000000000e+00
	0.000000000000000e+00
	-5.000000000000000e+00
	0.000000000000000e+00
	0.000000000000000e+00
	0.000000000000000e+00
40		1.960326347034425e-02
	0.000000000000000e+00
	0.000000000000000e+00
	-5.000000000000000e+00
	0.000000000000000e+00
	0.000000000000000e+00
	0.000000000000000e+00
41		2.057982597034425e-02
	0.000000000000000e+00
	0.000000000000000e+00
	-5.000000000000000e+00
	0.000000000000000e+00
	0.000000000000000e+00
	0.000000000000000e+00
42		2.155638847034425e-02
	0.000000000000000e+00
	0.000000000000000e+00
	-5.000000000000000e+00
	0.000000000000000e+00
	0.000000000000000e+00
	0.000000000000000e+00
43		2.253295097034425e-02
	0.000000000000000e+00
	0.000000000000000e+00
	-5.000000000000000e+00
	0.000000000000000e+00
	0.000000000000000e+00
	0.000000000000000e+00
44		2.350951347034425e-02
	0.000000000000000e+00
	0.000000000000000e+00
	-5.000000000000000e+00
	0.000000000000000e+00
	0.000000000000000e+00
	0.000000000000000e+00
45		2.448607597034425e-02
	0.000000000000000e+00
	0.000000000000000e+00
	-5.000000000000000e+00
	0.000000000000000e+00
	0.000000000000000e+00
	0.000000000000000e+00
46		2.546263847034425e-02
	0.000000000000000e+00
	0.000000000000000e+00
	-5.000000000000000e+00
	0.000000000000000e+00
	0.000000000000000e+00
	0.000000000000000e+00
47		2.643920097034425e-02
	0.000000000000000e+00
	0.000000000000000e+00
	-5.000000000000000e+00
	0.000000000000000e+00
	0.000000000000000e+00
	0.000000000000000e+00
48		2.741576347034425e-02
	0.000000000000000e+00
	0.000000000000000e+00
	-5.000000000000000e+00
	0.000000000000000e+00
	0.000000000000000e+00
	0.000000000000000e+00
49		2.839232597034425e-02
	0.000000000000000e+00
	0.000000000000000e+00
	-5.000000000000000e+00
	0.000000000000000e+00
	0.000000000000000e+00
	0.000000000000000e+00
50		2.936888847034425e-02
	0.000000000000000e+00
	0.000000000000000e+00
	-5.000000000000000e+00
	0.000000000000000e+00
	0.000000000000000e+00
	0.000000000000000e+00
51		3.034545097034425e-02
	0.000000000000000e+00
	0.000000000000000e+00
	-5.000000000000000e+00
	0.000000000000000e+00
	0.000000000000000e+00
	0.000000000000000e+00
52		3.132201347034425e-02
	0.000000000000000e+00
	0.000000000000000e+00
	-5.000000000000000e+00
	0.000000000000000e+00
	0.000000000000000e+00
	0.000000000000000e+00
53		3.229857597034425e-02
	0.000000000000000e+00
	0.000000000000000e+00
	-5.000000000000000e+00
	0.000000000000000e+00
	0.000000000000000e+00
	0.000000000000000e+00
54		3.327513847034425e-02
	0.000000000000000e+00
	0.000000000000000e+00
	-5.000000000000000e+00
	0.000000000000000e+00
	0.000000000000000e+00
	0.000000000000000e+00
55		3.425170097034425e-02
	0.000000000000000e+00
	0.000000000000000e+00
	-5.000000000000000e+00
	0.000000000000000e+00
	0.000000000000000e+00
	0.000000000000000e+00
56		3.522826347034425e-02
	0.000000000000000e+00
	0.000000000000000e+00
	-5.000000000000000e+00
	0.000000000000000e+00
	0.000000000000000e+00
	0.000000000000000e+00
57		3.620482597034425e-02
	0.000000000000000e+00
	0.000000000000000e+00
	-5.000000000000000e+00
	0.000000000000000e+00
	0.000000000000000e+00
	0.000000000000000e+00
58		3.718138847034425e-02
	0.000000000000000e+00
	0.000000000000000e+00
	-5.000000000000000e+00
	0.000000000000000e+00
	0.000000000000000e+00
	0.000000000000000e+00
59		3.815795097034425e-02
	0.000000000000000e+00
	0.000000000000000e+00
	-5.000000000000000e+00
	0.000000000000000e+00
	0.000000000000000e+00
	0.000000000000000e+00
60		3.913451347034425e-02
	0.000000000000000e+00
	0.000000000000000e+00
	-5.000000000000000e+00
	0.000000000000000e+00
	0.000000000000000e+00
	0.000000000000000e+00
61		4.011107597034425e-02
	0.000000000000000e+00
	0.000000000000000e+00
	-5.000000000000000e+00
	0.000000000000000e+00
	0.000000000000000e+00
	0.000000000000000e+00
62		4.108763847034425e-02
	0.000000000000000e+00
	0.000000000000000e+00
	-5.000000000000000e+00
	0.000000000000000e+00
	0.000000000000000e+00
	0.000000000000000e+00
63		4.206420097034425e-02
	0.000000000000000e+00
	0.000000000000000e+00
	-5.000000000000000e+00
	0.000000000000000e+00
	0.000000000000000e+00
	0.000000000000000e+00
64		4.304076347034425e-02
	0.000000000000000e+00
	0.000000000000000e+00
	-5.000000000000000e+00
	0.000000000000000e+00
	0.000000000000000e+00
	0.000000000000000e+00
65		4.401732597034425e-02
	0.000000000000000e+00
	0.000000000000000e+00
	-5.000000000000000e+00
	0.000000000000000e+00
	0.000000000000000e+00
	0.000000000000000e+00
66		4.499388847034425e-02
	0.000000000000000e+00
	0.000000000000000e+00
	-5.000000000000000e+00
	0.000000000000000e+00
	0.000000000000000e+00
	0.000000000000000e+00
67		4.597045097034425e-02
	0.000000000000000e+00
	0.000000000000000e+00
	-5.000000000000000e+00
	0.000000000000000e+00
	0.000000000000000e+00
	0.000000000000000e+00
68		4.694701347034425e-02
	0.000000000000000e+00
	0.000000000000000e+00
	-5.000000000000000e+00
	0.000000000000000e+00
	0.000000000000000e+00
	0.000000000000000e+00
69		4.792357597034425e-02
	0.000000000000000e+00
	0.000000000000000e+00
	-5.000000000000000e+00
	0.000000000000000e+00
	0.000000000000000e+00
	0.000000000000000e+00
70		4.890013847034425e-02
	0.000000000000000e+00
	0.000000000000000e+00
	-5.000000000000000e+00
	0.000000000000000e+00
	0.000000000000000e+00
	0.000000000000000e+00
71		4.987670097034425e-02
	0.000000000000000e+00
	0.000000000000000e+00
	-5.000000000000000e+00
	0.000000000000000e+00
	0.000000000000000e+00
	0.000000000000000e+00
72		5.085326347034425e-02
	0.000000000000000e+00
	0.000000000000000e+00
	-5.000000000000000e+00
	0.000000000000000e+00
	0.000000000000000e+00
	0.000000000000000e+00
73		5.182982597034425e-02
	0.000000000000000e+00
	0.000000000000000e+00
	-5.000000000000000e+00
	0.000000000000000e+00
	0.000000000000000e+00
	0.000000000000000e+00
74		5.280638847034425e-02
	0.000000000000000e+00
	0.000000000000000e+00
	-5.000000000000000e+00
	0.000000000000000e+00
	0.000000000000000e+00
	0.000000000000000e+00
75		5.378295097034425e-02
	0.000000000000000e+00
	0.000000000000000e+00
	-5.000000000000000e+00
	0.000000000000000e+00
	0.000000000000000e+00
	0.000000000000000e+00
76		5.475951347034425e-02
	0.000000000000000e+00
	0.000000000000000e+00
	-5.000000000000000e+00
	0.000000000000000e+00
	0.000000000000000e+00
	0.000000000000000e+00
77		5.573607597034425e-02
	0.000000000000000e+00
	0.000000000000000e+00
	-5.000000000000000e+00
	0.000000000000000e+00
	0.000000000000000e+00
	0.000000000000000e+00
78		5.671263847034425e-02
	0.000000000000000e+00
	0.000000000000000e+00
	-5.000000000000000e+00
	0.000000000000000e+00
	0.000000000000000e+00
	0.000000000000000e+00
79		5.768920097034425e-02
	0.000000000000000e+00
	0.000000000000000e+00
	-5.000000000000000e+00
	0.000000000000000e+00
	0.000000000000000e+00
	0.000000000000000e+00
80		5.866576347034425e-02
	0.000000000000000e+00
	0.000000000000000e+00
	-5.000000000000000e+00
	0.000000000000000e+00
	0.000000000000000e+00
	0.000000000000000e+00
81		5.964232597034425e-02
	0.000000000000000e+00
	0.000000000000000e+00
	-5.000000000000000e+00
	0.000000000000000e+00
	0.000000000000000e+00
	0.000000000000000e+00
82		6.061888847034425e-02
	0.000000000000000e+00
	0.000000000000000e+00
	-5.000000000000000e+00
	0.000000000000000e+00
	0.000000000000000e+00
	0.000000000000000e+00
83		6.159545097034425e-02
	0.000000000000000e+00
	0.000000000000000e+00
	-5.000000000000000e+00
	0.000000000000000e+00
	0.000000000000000e+00
	0.000000000000000e+00
84		6.257201347034425e-02
	0.000000000000000e+00
	0.000000000000000e+00
	-5.000000000000000e+00
	0.000000000000000e+00
	0.000000000000000e+00
	0.000000000000000e+00
85		6.354857597034425e-02
	0.000000000000000e+00
	0.000000000000000e+00
	-5.000000000000000e+00
	0.000000000000000e+00
	0.000000000000000e+00
	0.000000000000000e+00
86		6.452513847034425e-02
	0.000000000000000e+00
	0.000000000000000e+00
	-5.000000000000000e+00
	0.000000000000000e+00
	0.000000000000000e+00
	0.000000000000000e+00
87		6.550170097034425e-02
	0.000000000000000e+00
	0.000000000000000e+00
	-5.000000000000000e+00
	0.000000000000000e+00
	0.000000000000000e+00
	0.000000000000000e+00
88		6.647826347034425e-02
	0.000000000000000e+00
	0.000000000000000e+00
	-5.000000000000000e+00
	0.000000000000000e+00
	0.000000000000000e+00
	0.000000000000000e+00
89		6.745482597034425e-02
	0.000000000000000e+00
	0.000000000000000e+00
	-5.000000000000000e+00
	0.000000000000000e+00
	0.000000000000000e+00
	0.000000000000000e+00
90		6.843138847034425e-02
	0.000000000000000e+00
	0.000000000000000e+00
	-5.000000000000000e+00
	0.000000000000000e+00
	0.000000000000000e+00
	0.000000000000000e+00
91		6.940795097034425e-02
	0.000000000000000e+00
	0.000000000000000e+00
	-5.000000000000000e+00
	0.000000000000000e+00
	0.000000000000000e+00
	0.000000000000000e+00
92		7.038451347034425e-02
	0.000000000000000e+00
	0.000000000000000e+00
	-5.000000000000000e+00
	0.000000000000000e+00
	0.000000000000000e+00
	0.000000000000000e+00
93		7.136107597034425e-02
	0.000000000000000e+00
	0.000000000000000e+00
	-5.000000000000000e+00
	0.000000000000000e+00
	0.000000000000000e+00
	0.000000000000000e+00
94		7.233763847034425e-02
	0.000000000000000e+00
	0.000000000000000e+00
	-5.000000000000000e+00
	0.000000000000000e+00
	0.000000000000000e+00
	0.000000000000000e+00
95		7.331420097034425e-02
	0.000000000000000e+00
	0.000000000000000e+00
	-5.000000000000000e+00
	0.000000000000000e+00
	0.000000000000000e+00
	0.000000000000000e+00
96		7.429076347034425e-02
	0.000000000000000e+00
	0.000000000000000e+00
	-5.000000000000000e+00
	0.000000000000000e+00
	0.000000000000000e+00
	0.000000000000000e+00
97		7.526732597034425e-02
	0.000000000000000e+00
	0.000000000000000e+00
	-5.000000000000000e+00
	0.000000000000000e+00
	0.000000000000000e+00
	0.000000000000000e+00
98		7.624388847034425e-02
	0.000000000000000e+00
	0.000000000000000e+00
	-5.000000000000000e+00
	0.000000000000000e+00
	0.000000000000000e+00
	0.000000000000000e+00
99		7.722045097034425e-02
	0.000000000000000e+00
	0.000000000000000e+00
	-5.000000000000000e+00
	0.000000000000000e+00
	0.000000000000000e+00
	0.000000000000000e+00
100		7.819701347034425e-02
	0.000000000000000e+00
	0.000000000000000e+00
	-5.000000000000000e+00
	0.000000000000000e+00
	0.000000000000000e+00
	0.000000000000000e+00
101		7.917357597034425e-02
	0.000000000000000e+00
	0.000000000000000e+00
	-5.000000000000000e+00
	0.000000000000000e+00
	0.000000000000000e+00
	0.000000000000000e+00
102		8.015013847034425e-02
	0.000000000000000e+00
	0.000000000000000e+00
	-5.000000000000000e+00
	0.000000000000000e+00
	0.000000000000000e+00
	0.000000000000000e+00
103		8.112670097034425e-02
	0.000000000000000e+00
	0.000000000000000e+00
	-5.000000000000000e+00
	0.000000000000000e+00
	0.000000000000000e+00
	0.000000000000000e+00
104		8.210326347034425e-02
	0.000000000000000e+00
	0.000000000000000e+00
	-5.000000000000000e+00
	0.000000000000000e+00
	0.000000000000000e+00
	0.000000000000000e+00
105		8.307982597034425e-02
	0.000000000000000e+00
	0.000000000000000e+00
	-5.000000000000000e+00
	0.000000000000000e+00
	0.000000000000000e+00
	0.000000000000000e+00
106		8.405638847034425e-02
	0.000000000000000e+00
	0.000000000000000e+00
	-5.000000000000000e+00
	0.000000000000000e+00
	0.000000000000000e+00
	0.000000000000000e+00
107		8.503295097034425e-02
	0.000000000000000e+00
	0.000000000000000e+00
	-5.000000000000000e+00
	0.000000000000000e+00
	0.000000000000000e+00
	0.000000000000000e+00
108		8.600951347034425e-02
	0.000000000000000e+00
	0.000000000000000e+00
	-5.000000000000000e+00
	0.000000000000000e+00
	0.000000000000000e+00
	0.000000000000000e+00
109		8.698607597034425e-02
	0.000000000000000e+00
	0.000000000000000e+00
	-5.000000000000000e+00
	0.000000000000000e+00
	0.000000000000000e+00
	0.000000000000000e+00
110		8.796263847034425e-02
	0.000000000000000e+00
	0.000000000000000e+00
	-5.000000000000000e+00
	0.000000000000000e+00
	0.000000000000000e+00
	0.000000000000000e+00
111		8.893920097034425e-02
	0.000000000000000e+00
	0.000000000000000e+00
	-5.000000000000000e+00
	0.000000000000000e+00
	0.000000000000000e+00
	0.000000000000000e+00
112		8.991576347034425e-02
	0.000000000000000e+00
	0.000000000000000e+00
	-5.000000000000000e+00
	0.000000000000000e+00
	0.000000000000000e+00
	0.000000000000000e+00
113		9.089232597034425e-02
	0.000000000000000e+00
	0.000000000000000e+00
	-5.000000000000000e+00
	0.000000000000000e+00
	0.000000000000000e+00
