Title: * C:\Users\Owner\Desktop\my_program\kyo-pro\40_LTspice\sample_circuit\sample.asc
Date: Sat May 17 10:41:00 2025
Plotname: Transient Analysis
Flags: real forward
No. Variables: 8
No. Points:         1385
Offset:    0.0000000000000000e+00
Command: Linear Technology Corporation LTspice
Variables:
	0	time	time
	1	V(n001)	voltage
	2	V(n002)	voltage
	3	V(n003)	voltage
	4	I(C1)	device_current
	5	I(L1)	device_current
	6	I(R1)	device_current
	7	I(V1)	device_current
Values:
0		0.000000000000000e+00
	0.000000000000000e+00
	0.000000000000000e+00
	0.000000000000000e+00
	0.000000000000000e+00
	0.000000000000000e+00
	0.000000000000000e+00
	0.000000000000000e+00
1		9.999999717180685e-10
	4.429645516282601e-05
	4.429643299246192e-05
	4.376305459770865e-18
	-2.217036408621992e-13
	-2.217036408621992e-13
	-2.217036408245447e-13
	-2.217036408647787e-13
2		1.023999979039387e-09
	4.535957044110919e-05
	4.535954772589881e-05
	4.483918017110274e-18
	-2.271521038234044e-13
	-2.271521038234048e-13
	-2.271521038215048e-13
	-2.271521038003290e-13
3		1.071999993682022e-09
	4.748580099767553e-05
	4.748577716725779e-05
	4.704426389713328e-18
	-2.383041773564840e-13
	-2.383041773564840e-13
	-2.383041773488430e-13
	-2.383041773827243e-13
4		1.168000022967294e-09
	5.173826211080816e-05
	5.173823589688715e-05
	5.178593186462581e-18
	-2.621392100499107e-13
	-2.621392100499099e-13
	-2.621392101461286e-13
	-2.621392100741308e-13
5		1.360000081537838e-09
	6.024318433707331e-05
	6.024315274379155e-05
	6.274032025414723e-18
	-3.159328175784146e-13
	-3.159328175784146e-13
	-3.159328176269337e-13
	-3.159328176692854e-13
6		1.744000198678925e-09
	7.725302878960290e-05
	7.725298398818307e-05
	9.169370986849510e-18
	-4.480141982627024e-13
	-4.480141982627020e-13
	-4.480141983038890e-13
	-4.480141982149505e-13
7		2.512000432961098e-09
	1.112727176946585e-04
	1.112726366792986e-04
	1.870621625704894e-17
	-8.101535986257353e-13
	-8.101535986257355e-13
	-8.101535986667318e-13
	-8.101535985989691e-13
8		4.048000901525446e-09
	1.793120955047482e-04
	1.793119028708715e-04
	6.019115068411348e-17
	-1.926338767212428e-12
	-1.926338767212429e-12
	-1.926338767319069e-12
	-1.926338767225895e-12
9		7.120001838654142e-09
	3.153908511247866e-04
	3.153902784914795e-04
	2.922185397306190e-16
	-5.726333070890948e-12
	-5.726333070890949e-12
	-5.726333070915635e-12
	-5.726333070525999e-12
10		1.326400371291153e-08
	5.875483623638554e-04
	5.875464026833049e-04
	1.827802934430265e-15
	-1.959680550477450e-11
	-1.959680550477450e-11
	-1.959680550537961e-11
	-1.959680550497303e-11
11		2.555200746142631e-08
	1.131863384834412e-03
	1.131856142875475e-03
	1.298747333570597e-14
	-7.241958936277415e-11
	-7.241958936277415e-11
	-7.241958936395413e-11
	-7.241958936490280e-11
12		5.012801495845588e-08
	2.220493429716810e-03
	2.220465590542558e-03
	9.807967548973246e-14
	-2.783917425139771e-10
	-2.783917425139771e-10
	-2.783917425188895e-10
	-2.783917425199737e-10
13		9.928002995251500e-08
	4.397753519019618e-03
	4.397644355396980e-03
	7.627030002917683e-13
	-1.091636226371560e-09
	-1.091636226371560e-09
	-1.091636226378812e-09
	-1.091636226380167e-09
14		1.975840599406333e-07
	8.752273693960260e-03
	8.751841366301145e-03
	6.016431306610455e-12
	-4.323276591145158e-09
	-4.323276591145156e-09
	-4.323276591149811e-09
	-4.323276591147100e-09
15		3.732767137058878e-07
	1.653483564173979e-02
	1.653329270711631e-02
	4.026821499312544e-11
	-1.542934623481852e-08
	-1.542934623481851e-08
	-1.542934623482983e-08
	-1.542934623485369e-08
16		5.615862072564571e-07
	2.487627882429419e-02
	2.487278659605565e-02
	1.338498344651983e-10
	-3.492228238535072e-08
	-3.492228238535072e-08
	-3.492228238536482e-08
	-3.492228238538434e-08
17		7.542865123238481e-07
	3.341221930534139e-02
	3.340591949175236e-02
	3.200844818600147e-10
	-6.299813589029152e-08
	-6.299813589029152e-08
	-6.299813589030756e-08
	-6.299813589029238e-08
18		9.890861428796756e-07
	4.381301051430951e-02
	4.380217858736707e-02
	7.170965572220460e-10
	-1.083192694244361e-07
	-1.083192694244361e-07
	-1.083192694244228e-07
	-1.083192694244488e-07
19		1.301557180345275e-06
	5.765436930499859e-02
	5.763561327833024e-02
	1.629589506417620e-09
	-1.875602666835271e-07
	-1.875602666835273e-07
	-1.875602666834980e-07
	-1.875602666834330e-07
20		1.711215795030101e-06
	7.580079223109670e-02
	7.576837367283812e-02
	3.698688358395743e-09
	-3.241855825859001e-07
	-3.241855825859002e-07
	-3.241855825858453e-07
	-3.241855825858713e-07
21		2.253950941199355e-06
	9.984203128622460e-02
	9.978579286366672e-02
	8.447726992658927e-09
	-5.623842255788547e-07
	-5.623842255788544e-07
	-5.623842255787770e-07
	-5.623842255788290e-07
22		2.965225745051614e-06
	1.313489739808911e-01
	1.312516527693383e-01
	1.922774067522095e-08
	-9.732121155282238e-07
	-9.732121155282240e-07
	-9.732121155284214e-07
	-9.732121155285166e-07
23		3.904341994456616e-06
	1.729484716219449e-01
	1.727797701926618e-01
	4.388488484405826e-08
	-1.687014292831153e-06
	-1.687014292831154e-06
	-1.687014292831302e-06
	-1.687014292831241e-06
24		5.137534914558952e-06
	2.275744926208158e-01
	2.272824527348212e-01
	9.996294722059761e-08
	-2.920398859945836e-06
	-2.920398859945836e-06
	-2.920398859945772e-06
	-2.920398859945945e-06
25		6.763720894833120e-06
	2.996086423628160e-01
	2.991026025782165e-01
	2.280547327971902e-07
	-5.060397845995686e-06
	-5.060397845995686e-06
	-5.060397845995657e-06
	-5.060397845995605e-06
26		8.901674752844427e-06
	3.943121337516279e-01
	3.934359404644466e-01
	5.197198066705243e-07
	-8.761932871812499e-06
	-8.761932871812497e-06
	-8.761932871813039e-06
	-8.761932871813143e-06
27		1.171915289100100e-05
	5.191157725130733e-01
	5.175978759165587e-01
	1.185461605732371e-06
	-1.517896596514516e-05
	-1.517896596514518e-05
	-1.517896596514579e-05
	-1.517896596514579e-05
28		1.542616927484798e-05
	6.833219601436271e-01
	6.806935456240900e-01
	2.702481270135282e-06
	-2.628414519537124e-05
	-2.628414519537125e-05
	-2.628414519537103e-05
	-2.628414519537103e-05
29		2.031049037171557e-05
	8.996766466407662e-01
	8.951240431552404e-01
	6.164226013435201e-06
	-4.552603485525773e-05
	-4.552603485525775e-05
	-4.552603485525775e-05
	-4.552603485525816e-05
30		2.674107438678909e-05
	1.184520902828760e+00
	1.176637672468111e+00
	1.405700871628999e-05
	-7.883230360649474e-05
	-7.883230360649474e-05
	-7.883230360649308e-05
	-7.883230360649328e-05
31		3.521551078595316e-05
	1.559890517465646e+00
	1.546238674493177e+00
	3.206901121459727e-05
	-1.365184297246931e-04
	-1.365184297246932e-04
	-1.365184297246924e-04
	-1.365184297246920e-04
32		4.638109540081537e-05
	2.054445470685828e+00
	2.030808965228033e+00
	7.316121507825460e-05
	-2.363650545779459e-04
	-2.363650545779460e-04
	-2.363650545779450e-04
	-2.363650545779451e-04
33		6.110452446339175e-05
	2.706547666965603e+00
	2.665625143864107e+00
	1.669758891151237e-04
	-4.092252310149603e-04
	-4.092252310149603e-04
	-4.092252310149647e-04
	-4.092252310149667e-04
34		8.052479631301847e-05
	3.566582684723656e+00
	3.495748938067659e+00
	3.811820813368704e-04
	-7.083374665599724e-04
	-7.083374665599725e-04
	-7.083374665599696e-04
	-7.083374665599745e-04
35		1.061652137602531e-04
	4.701870917661856e+00
	4.579283407250037e+00
	8.706611352638048e-04
	-1.225875104118194e-03
	-1.225875104118194e-03
	-1.225875104118197e-03
	-1.225875104118201e-03
36		1.400467495004844e-04
	6.201573516726060e+00
	5.989488705724046e+00
	1.989809597487351e-03
	-2.120848110020138e-03
	-2.120848110020137e-03
	-2.120848110020140e-03
	-2.120848110020140e-03
37		1.848845333530969e-04
	8.185125560678268e+00
	7.818336072819780e+00
	4.551538840493648e-03
	-3.667894878584878e-03
	-3.667894878584878e-03
	-3.667894878584876e-03
	-3.667894878584876e-03
38		2.443253732914942e-04
	1.081212407322970e+01
	1.017812604867495e+01
	1.042280318491742e-02
	-6.339980245547428e-03
	-6.339980245547432e-03
	-6.339980245547441e-03
	-6.339980245547439e-03
39		3.233290019719298e-04
	1.429771248089327e+01
	1.320260221627993e+01
	2.390541562330058e-02
	-1.095110264613337e-02
	-1.095110264613338e-02
	-1.095110264613337e-02
	-1.095110264613339e-02
40		4.286946628962683e-04
	1.893229990616503e+01
	1.704256691654752e+01
	5.494568232657604e-02
	-1.889732989617515e-02
	-1.889732989617515e-02
	-1.889732989617514e-02
	-1.889732989617512e-02
41		5.699151548871108e-04
	2.511055767771634e+01
	2.185399089094875e+01
	1.266751519627255e-01
	-3.256566786767587e-02
	-3.256566786767589e-02
	-3.256566786767593e-02
	-3.256566786767592e-02
42		7.605325457271934e-04
	3.336927879787832e+01
	2.776802601816524e+01
	2.933208738631178e-01
	-5.601252779713072e-02
	-5.601252779713070e-02
	-5.601252779713072e-02
	-5.601252779713073e-02
43		1.020577247556580e-03
	4.443736694953641e+01
	3.483006328779840e+01
	6.836588648888330e-01
	-9.607303661738009e-02
	-9.607303661738012e-02
	-9.607303661738016e-02
	-9.607303661738015e-02
44		1.381341522304555e-03
	5.928600941945246e+01
	4.287710452235014e+01
	1.610002983761918e+00
	-1.640890489710233e-01
	-1.640890489710233e-01
	-1.640890489710232e-01
	-1.640890489710232e-01
45		1.896580580452228e-03
	7.912843419179576e+01
	5.129400407940729e+01
	3.859893850284020e+00
	-2.783443011238845e-01
	-2.783443011238846e-01
	-2.783443011238848e-01
	-2.783443011238848e-01
46		2.676972687825920e-03
	1.050883422912535e+02
	5.846523152710326e+01
	9.594800801972225e+00
	-4.662311076415027e-01
	-4.662311076415029e-01
	-4.662311076415028e-01
	-4.662311076415029e-01
47		3.653535187825920e-03
	1.285722243610261e+02
	6.033357953793162e+01
	2.066563412122494e+01
	-6.823864482309447e-01
	-6.823864482309453e-01
	-6.823864482309452e-01
	-6.823864482309453e-01
48		4.185428912457993e-03
	1.364082791038766e+02
	5.883709900669365e+01
	2.832012788995734e+01
	-7.757118009718305e-01
	-7.757118009718298e-01
	-7.757118009718298e-01
	-7.757118009718298e-01
49		4.490662109450066e-03
	1.391987500273110e+02
	5.744294743473979e+01
	3.311995855453436e+01
	-8.175580259257114e-01
	-8.175580259257125e-01
	-8.175580259257126e-01
	-8.175580259257125e-01
50		4.854192333384991e-03
	1.408520981377979e+02
	5.540573843240760e+01
	3.911907417855542e+01
	-8.544635970539041e-01
	-8.544635970539025e-01
	-8.544635970539026e-01
	-8.544635970539026e-01
51		5.245773957302540e-03
	1.405799076099084e+02
	5.285030788168021e+01
	4.581198016143102e+01
	-8.772959972822836e-01
	-8.772959972822816e-01
	-8.772959972822816e-01
	-8.772959972822816e-01
52		5.700044895707743e-03
	1.376038295936832e+02
	4.954610712647145e+01
	5.369345191562170e+01
	-8.805772246721162e-01
	-8.805772246721174e-01
	-8.805772246721176e-01
	-8.805772246721175e-01
53		6.436358907903186e-03
	1.268865587873905e+02
	4.371918022426137e+01
	6.613674456546573e+01
	-8.316737856312901e-01
	-8.316737856312915e-01
	-8.316737856312915e-01
	-8.316737856312916e-01
54		7.412921407903186e-03
	1.023919146779275e+02
	3.566462957363026e+01
	8.058418904708046e+01
	-6.672728510429726e-01
	-6.672728510429723e-01
	-6.672728510429724e-01
	-6.672728510429724e-01
55		8.389483907903186e-03
	6.833510270440856e+01
	2.794637141758216e+01
	9.090845718337691e+01
	-4.038873128682638e-01
	-4.038873128682641e-01
	-4.038873128682640e-01
	-4.038873128682640e-01
56		9.366046407903186e-03
	2.789661767474621e+01
	2.104715910788737e+01
	9.546146199772635e+01
	-6.849458566858857e-02
	-6.849458566858851e-02
	-6.849458566858846e-02
	-6.849458566858849e-02
57		1.034260890790319e-02
	-1.514707443483423e+01
	1.521034917075995e+01
	9.319567073162479e+01
	3.035742360559421e-01
	3.035742360559418e-01
	3.035742360559418e-01
	3.035742360559418e-01
58		1.131917140790319e-02
	-5.677621277959034e+01
	1.050969435143410e+01
	8.378441775368557e+01
	6.728590713102438e-01
	6.728590713102444e-01
	6.728590713102445e-01
	6.728590713102445e-01
59		1.229573390790319e-02
	-9.310313874760270e+01
	6.904564993433533e+00
	6.765999346753799e+01
	1.000077037410362e+00
	1.000077037410362e+00
	1.000077037410362e+00
	1.000077037410362e+00
60		1.327229640790319e-02
	-1.207353563084581e+02
	4.282543780651021e+00
	4.597112984333971e+01
	1.250179000891092e+00
	1.250179000891091e+00
	1.250179000891091e+00
	1.250179000891091e+00
61		1.403988426499029e-02
	-1.346343778918174e+02
	2.842970533567462e+00
	2.608481269936136e+01
	1.374773484253849e+00
	1.374773484253849e+00
	1.374773484253849e+00
	1.374773484253849e+00
62		1.438132715931561e-02
	-1.383451294094667e+02
	2.342418094277401e+00
	1.671080685986860e+01
	1.406875475037442e+00
	1.406875475037441e+00
	1.406875475037441e+00
	1.406875475037441e+00
63		1.472167060798585e-02
	-1.404613207099384e+02
	1.899758174503268e+00
	7.202936188102705e+00
	1.423610788844416e+00
	1.423610788844417e+00
	1.423610788844417e+00
	1.423610788844417e+00
64		1.514494853059236e-02
	-1.408538356536503e+02
	1.421593137780560e+00
	-4.688136617563965e+00
	1.422754287914309e+00
	1.422754287914309e+00
	1.422754287914309e+00
	1.422754287914309e+00
65		1.553599090633171e-02
	-1.390057605799678e+02
	1.046267266135076e+00
	-1.558450449952092e+01
	1.400520278461030e+00
	1.400520278461029e+00
	1.400520278461029e+00
	1.400520278461029e+00
66		1.617117470183606e-02
	-1.315631456576127e+02
	5.722781858261046e-01
	-3.264816998045480e+01
	1.321354238434388e+00
	1.321354238434388e+00
	1.321354238434388e+00
	1.321354238434388e+00
67		1.714773720183606e-02
	-1.101033301600079e+02
	1.973038984560400e-01
	-5.601512248685299e+01
	1.103006340584640e+00
	1.103006340584640e+00
	1.103006340584640e+00
	1.103006340584640e+00
68		1.812429970183606e-02
	-7.836119375168262e+01
	7.906446613438689e-02
	-7.420672114590894e+01
	7.844025821781706e-01
	7.844025821781702e-01
	7.844025821781700e-01
	7.844025821781700e-01
69		1.910086220183606e-02
	-3.930106850568088e+01
	9.091355892366693e-02
	-8.556386160690397e+01
	3.939198206460475e-01
	3.939198206460455e-01
	3.939198206460455e-01
	3.939198206460455e-01
70		2.007742470183606e-02
	3.429301754003633e+00
	1.368840278755350e-01
	-8.904328134627355e+01
	-3.292417726128072e-02
	-3.292417726128100e-02
	-3.292417726128097e-02
	-3.292417726128097e-02
71		2.105398720183606e-02
	4.583941665825867e+01
	1.511969334437815e-01
	-8.432233249504105e+01
	-4.568821972481505e-01
	-4.568821972481488e-01
	-4.568821972481489e-01
	-4.568821972481488e-01
72		2.203054970183606e-02
	8.396868381925763e+01
	9.611446843512361e-02
	-7.183474780478461e+01
	-8.387256935082252e-01
	-8.387256935082251e-01
	-8.387256935082252e-01
	-8.387256935082251e-01
73		2.300711220183606e-02
	1.142562903127208e+02
	-4.149518648391926e-02
	-5.273429999998493e+01
	-1.142977854992047e+00
	-1.142977854992047e+00
	-1.142977854992047e+00
	-1.142977854992047e+00
74		2.398367470183606e-02
	1.338737395879006e+02
	-2.545560751035572e-01
	-2.879000520281062e+01
	-1.341282956630042e+00
	-1.341282956630042e+00
	-1.341282956630042e+00
	-1.341282956630042e+00
75		2.433930138243243e-02
	1.379735335042060e+02
	-3.681439344131359e-01
	-1.922648446689366e+01
	-1.383416774386191e+00
	-1.383416774386191e+00
	-1.383416774386191e+00
	-1.383416774386191e+00
76		2.467106452927626e-02
	1.402478165619293e+02
	-4.566965546437642e-01
	-1.008937014658438e+01
	-1.407045131165730e+00
	-1.407045131165730e+00
	-1.407045131165731e+00
	-1.407045131165730e+00
77		2.498543148547938e-02
	1.409985232103274e+02
	-5.261939149570191e-01
	-1.332605039726682e+00
	-1.415247171252844e+00
	-1.415247171252844e+00
	-1.415247171252844e+00
	-1.415247171252844e+00
78		2.529458512116015e-02
	1.403966067014463e+02
	-5.820113357043145e-01
	7.287305457451645e+00
	-1.409786180371507e+00
	-1.409786180371507e+00
	-1.409786180371507e+00
	-1.409786180371507e+00
79		2.577941430776713e-02
	1.367941418058993e+02
	-6.530432932412151e-01
	2.061033700748748e+01
	-1.374471850991405e+00
	-1.374471850991406e+00
	-1.374471850991405e+00
	-1.374471850991406e+00
80		2.656425575331408e-02
	1.243142171133713e+02
	-7.742570592817124e-01
	4.094678255925372e+01
	-1.250884741726530e+00
	-1.250884741726530e+00
	-1.250884741726530e+00
	-1.250884741726530e+00
81		2.754081825331408e-02
	9.841537119090238e+01
	-9.708011537485675e-01
	6.258254272403403e+01
	-9.938617234465097e-01
	-9.938617234465095e-01
	-9.938617234465095e-01
	-9.938617234465095e-01
82		2.851738075331408e-02
	6.332571852660339e+01
	-1.133058322566130e+00
	7.837457126697616e+01
	-6.445877684916965e-01
	-6.445877684916952e-01
	-6.445877684916953e-01
	-6.445877684916952e-01
83		2.949394325331408e-02
	2.232220877145884e+01
	-1.221790425998865e+00
	8.685662920055624e+01
	-2.354399919745749e-01
	-2.354399919745770e-01
	-2.354399919745770e-01
	-2.354399919745770e-01
84		3.047050575331408e-02
	-2.076592561484546e+01
	-1.211505454404996e+00
	8.724116071243307e+01
	1.955442016044060e-01
	1.955442016044047e-01
	1.955442016044046e-01
	1.955442016044046e-01
85		3.139247401192432e-02
	-5.973306622931607e+01
	-1.075340540301891e+00
	8.012419309389846e+01
	5.865772568901413e-01
	5.865772568901417e-01
	5.865772568901417e-01
	5.865772568901417e-01
86		3.236903651192432e-02
	-9.551675760907919e+01
	-8.690327324185407e-01
	6.534800339117020e+01
	9.464772487666071e-01
	9.464772487666065e-01
	9.464772487666064e-01
	9.464772487666065e-01
87		3.334559901192432e-02
	-1.223803377382491e+02
	-5.677423286670162e-01
	4.448469589713797e+01
	1.218125954095821e+00
	1.218125954095821e+00
	1.218125954095821e+00
	1.218125954095821e+00
88		3.406828588868354e-02
	-1.350027627226688e+02
	-2.708971559857938e-01
	2.618610576164498e+01
	1.347318655666831e+00
	1.347318655666831e+00
	1.347318655666830e+00
	1.347318655666831e+00
89		3.440260582538336e-02
	-1.385240851456496e+02
	-1.345202190162396e-01
	1.717407068921198e+01
	1.383895649266333e+00
	1.383895649266334e+00
	1.383895649266334e+00
	1.383895649266334e+00
90		3.474736708055738e-02
	-1.405561453649385e+02
	-1.178936360033001e-02
	7.682794663773916e+00
	1.405443560013382e+00
	1.405443560013382e+00
	1.405443560013381e+00
	1.405443560013382e+00
91		3.520593443052796e-02
	-1.407050181456269e+02
	1.273520566403253e-01
	-5.052122398857915e+00
	1.408323702022672e+00
	1.408323702022672e+00
	1.408323702022672e+00
	1.408323702022672e+00
92		3.563523660408929e-02
	-1.382015467900144e+02
	2.369966936043832e-01
	-1.688508827507286e+01
	1.384385434836188e+00
	1.384385434836188e+00
	1.384385434836188e+00
	1.384385434836188e+00
93		3.633172348147735e-02
	-1.288388977406645e+02
	4.035557846312008e-01
	-3.528582867606595e+01
	1.292424535252958e+00
	1.292424535252958e+00
	1.292424535252958e+00
	1.292424535252958e+00
94		3.730828598147735e-02
	-1.055225750923859e+02
	6.839760383331637e-01
	-5.797934117205777e+01
	1.062065511307192e+00
	1.062065511307191e+00
	1.062065511307191e+00
	1.062065511307191e+00
95		3.828484848147735e-02
	-7.235171871793654e+01
	9.272779783191663e-01
	-7.527887288344540e+01
	7.327899669625575e-01
	7.327899669625570e-01
	7.327899669625570e-01
	7.327899669625570e-01
96		3.926141098147735e-02
	-3.242408587524699e+01
	1.091510004134506e+00
	-8.557216091267406e+01
	3.351559587938127e-01
	3.351559587938150e-01
	3.351559587938149e-01
	3.351559587938149e-01
97		4.023797348147735e-02
	1.053156488226443e+01
	1.148952951026075e+00
	-8.789819398974251e+01
	-9.382611931238394e-02
	-9.382611931238351e-02
	-9.382611931238355e-02
	-9.382611931238355e-02
98		4.121453598147735e-02
	5.250369470853655e+01
